
T1A20 000:034 SEGGER J-Link V6.14d Log File (0000ms, 0026ms total)
T1A20 000:034 DLL Compiled: Apr 19 2017 18:25:54 (0000ms, 0026ms total)
T1A20 000:034 Logging started @ 2017-04-28 10:43 (0000ms, 0026ms total)
T1A20 000:034 JLINK_SetWarnOutHandler(...) (0000ms, 0026ms total)
T1A20 000:034 JLINK_OpenEx(...)
Firmware: J-Link OB-SAM3U128-V2-NordicSemi compiled Mar  2 2017 12:22:13
Hardware: V1.00
S/N: 681260649WEBSRV Webserver running on local port 19080 (0014ms, 0040ms total)
T1A20 000:034   returns O.K. (0014ms, 0040ms total)
T1A20 000:048 JLINK_SetErrorOutHandler(...) (0000ms, 0040ms total)
T1A20 000:048 JLINK_ExecCommand("ProjectFile = "E:\Nordic_SDK\nRF5_SDK_12.2.0_f012efa\examples\ble_peripheral\ble_app_mi_secure\pca10028\s130\arm5_no_packs\JLinkSettings.ini"", ...). C:\Program Files (x86)\SEGGER\JLink_V614d\JLinkDevices.xml evaluated successfully.  returns 0x00 (0093ms, 0133ms total)
T1A20 000:141 JLINK_ExecCommand("Device = nRF51422_xxAC", ...). Device "NRF51422_XXAC" selected.  returns 0x00 (0000ms, 0133ms total)
T1A20 000:141 JLINK_ExecCommand("DisableConnectionTimeout", ...).   returns 0x01 (0000ms, 0133ms total)
T1A20 000:141 JLINK_GetHardwareVersion()  returns 0x2710 (0001ms, 0134ms total)
T1A20 000:142 JLINK_GetDLLVersion()  returns 61404 (0000ms, 0134ms total)
T1A20 000:142 JLINK_GetFirmwareString(...) (0000ms, 0134ms total)
T1A20 000:142 JLINK_GetDLLVersion()  returns 61404 (0000ms, 0134ms total)
T1A20 000:142 JLINK_GetCompileDateTime() (0000ms, 0134ms total)
T1A20 000:142 JLINK_GetFirmwareString(...) (0000ms, 0134ms total)
T1A20 000:142 JLINK_GetHardwareVersion()  returns 0x2710 (0000ms, 0134ms total)
T1A20 000:142 JLINK_TIF_Select(JLINKARM_TIF_SWD)  returns 0x00 (0003ms, 0137ms total)
T1A20 000:145 JLINK_SetSpeed(5000) (0001ms, 0138ms total)
T1A20 000:146 JLINK_GetId() >0x10B TIF>Found SW-DP with ID 0x0BB11477 >0x0D TIF> >0x28 TIF> >0x0D TIF> >0x28 TIF> >0x0D TIF> >0x28 TIF> >0x0D TIF> >0x28 TIF> >0x35 TIF> >0x0D TIF> >0x28 TIF> >0x0D TIF> >0x28 TIF> >0x35 TIF> >0x35 TIF> >0x35 TIF>AP-IDR: 0x04770021, Type: AHB-APAHB-AP ROM: 0xF0000000 (Base addr. of first ROM table) >0x0D TIF> >0x28 TIF> >0x0D TIF> >0x28 TIF> >0x0D TIF> >0x28 TIF> >0x35 TIF> >0x35 TIF> >0x0D TIF> >0x28 TIF> >0x35 TIF> >0x35 TIF>Found Cortex-M0 r0p0, Little endian.
 -- CPU_ReadMem(4 bytes @ 0xE000EDF0) -- CPU_WriteMem(4 bytes @ 0xE000EDF0) -- CPU_ReadMem(4 bytes @ 0xE0002000)FPUnit: 4 code (BP) slots and 0 literal slots -- CPU_ReadMem(4 bytes @ 0xE000EDFC) -- CPU_WriteMem(4 bytes @ 0xE000EDFC) -- CPU_ReadMem(4 bytes @ 0xE0001000) -- CPU_WriteMem(4 bytes @ 0xE0001000)CoreSight components:ROMTbl[0] @ F0000000 -- CPU_ReadMem(16 bytes @ 0xF0000000) -- CPU_ReadMem(16 bytes @ 0xE00FFFF0) -- CPU_ReadMem(16 bytes @ 0xE00FFFE0)
ROMTbl[0][0]: E00FF000, CID: B105100D, PID: 000BB471 ROM TableROMTbl[1] @ E00FF000 -- CPU_ReadMem(16 bytes @ 0xE00FF000) -- CPU_ReadMem(16 bytes @ 0xE000EFF0) -- CPU_ReadMem(16 bytes @ 0xE000EFE0)ROMTbl[1][0]: E000E000, CID: B105E00D, PID: 000BB008 SCS -- CPU_ReadMem(16 bytes @ 0xE0001FF0) -- CPU_ReadMem(16 bytes @ 0xE0001FE0)ROMTbl[1][1]: E0001000, CID: B105E00D, PID: 000BB00A DWT -- CPU_ReadMem(16 bytes @ 0xE0002FF0) -- CPU_ReadMem(16 bytes @ 0xE0002FE0)
ROMTbl[1][2]: E0002000, CID: B105E00D, PID: 000BB00B FPB -- CPU_ReadMem(16 bytes @ 0xF0002FF0) -- CPU_ReadMem(16 bytes @ 0xF0002FE0)ROMTbl[0][1]: F0002000, CID: B105900D, PID: 000BB9A3 ??? -- CPU is running -- CPU_ReadMem(4 bytes @ 0x10001004) >0x35 TIF>  returns 0x0BB11477 (0051ms, 0189ms total)
T1A20 000:197 JLINK_GetDLLVersion()  returns 61404 (0000ms, 0189ms total)
T1A20 000:197 JLINK_CORE_GetFound()  returns 0x60000FF (0000ms, 0189ms total)
T1A20 000:197 JLINK_GetDebugInfo(0x100 = JLINKARM_ROM_TABLE_ADDR_INDEX) -- Value=0xF0000000  returns 0x00 (0000ms, 0189ms total)
T1A20 000:197 JLINK_GetDebugInfo(0x100 = JLINKARM_ROM_TABLE_ADDR_INDEX) -- Value=0xF0000000  returns 0x00 (0000ms, 0189ms total)
T1A20 000:197 JLINK_GetDebugInfo(0x101 = JLINKARM_DEBUG_INFO_ETM_ADDR_INDEX) -- Value=0x00000000  returns 0x00 (0000ms, 0189ms total)
T1A20 000:197 JLINK_ReadMem (0xE0041FF0, 0x0010 Bytes, ...) -- CPU is running -- CPU_ReadMem(16 bytes @ 0xE0041FF0) - Data: 00 00 00 00 00 00 00 00 00 00 00 00 00 00 00 00  returns 0x00 (0001ms, 0190ms total)
T1A20 000:199 JLINK_GetDebugInfo(0x102 = JLINKARM_DEBUG_INFO_MTB_ADDR_INDEX) -- Value=0x00000000  returns 0x00 (0000ms, 0191ms total)
T1A20 000:199 JLINK_GetDebugInfo(0x103 = JLINKARM_DEBUG_INFO_TPIU_ADDR_INDEX) -- Value=0x00000000  returns 0x00 (0000ms, 0191ms total)
T1A20 000:199 JLINK_ReadMem (0xE0040FF0, 0x0010 Bytes, ...) -- CPU is running -- CPU_ReadMem(16 bytes @ 0xE0040FF0) - Data: 00 00 00 00 00 00 00 00 00 00 00 00 00 00 00 00  returns 0x00 (0001ms, 0192ms total)
T1A20 000:200 JLINK_GetDebugInfo(0x104 = JLINKARM_DEBUG_INFO_ITM_ADDR_INDEX) -- Value=0xE0000000  returns 0x00 (0000ms, 0192ms total)
T1A20 000:200 JLINK_GetDebugInfo(0x105 = JLINKARM_DEBUG_INFO_DWT_ADDR_INDEX) -- Value=0xE0001000  returns 0x00 (0000ms, 0192ms total)
T1A20 000:200 JLINK_GetDebugInfo(0x106 = JLINKARM_DEBUG_INFO_FPB_ADDR_INDEX) -- Value=0xE0002000  returns 0x00 (0000ms, 0192ms total)
T1A20 000:200 JLINK_GetDebugInfo(0x107 = JLINKARM_DEBUG_INFO_NVIC_ADDR_INDEX) -- Value=0xE000E000  returns 0x00 (0000ms, 0192ms total)
T1A20 000:200 JLINK_GetDebugInfo(0x10C = JLINKARM_DEBUG_INFO_DBG_ADDR_INDEX) -- Value=0xE000EDF0  returns 0x00 (0000ms, 0192ms total)
T1A20 000:200 JLINK_ReadMemU32(0xE000ED00, 0x0001 Items, ...) -- CPU is running -- CPU_ReadMem(4 bytes @ 0xE000ED00) - Data: 00 C2 0C 41  returns 0x01 (0000ms, 0192ms total)
T1A20 000:200 JLINK_SetResetType(JLINKARM_CM3_RESET_TYPE_NORMAL)  returns JLINKARM_CM3_RESET_TYPE_NORMAL (0000ms, 0192ms total)
T1A20 000:200 JLINK_Reset() -- CPU is running -- CPU_WriteMem(4 bytes @ 0xE000EDF0) -- CPU is running -- CPU_WriteMem(4 bytes @ 0xE000EDFC) >0x35 TIF> -- CPU is running -- CPU_WriteMem(4 bytes @ 0xE000ED0C) >0x0D TIF> >0x28 TIF> -- CPU is running -- CPU_ReadMem(4 bytes @ 0xE000EDF0) -- CPU is running -- CPU_ReadMem(4 bytes @ 0xE000EDF0) -- CPU is running -- CPU_WriteMem(4 bytes @ 0xE000EDF0) -- CPU is running -- CPU_WriteMem(4 bytes @ 0xE000EDFC) -- CPU is running -- CPU_ReadMem(4 bytes @ 0xE000EDF0)
 -- CPU_WriteMem(4 bytes @ 0xE0002000) -- CPU_ReadMem(4 bytes @ 0xE000EDFC) -- CPU_ReadMem(4 bytes @ 0xE0001000) -- CPU_WriteMem(4 bytes @ 0xE0001000) (0080ms, 0272ms total)
T1A20 000:281 JLINK_ReadReg(R15 (PC))  returns 0x000006D0 (0000ms, 0272ms total)
T1A20 000:281 JLINK_ReadReg(XPSR)  returns 0xC1000000 (0000ms, 0272ms total)
T1A20 000:281 JLINK_Halt()  returns 0x00 (0000ms, 0272ms total)
T1A20 000:281 JLINK_IsHalted()  returns TRUE (0000ms, 0272ms total)
T1A20 000:281 JLINK_ReadMemU32(0xE000EDF0, 0x0001 Items, ...) -- CPU_ReadMem(4 bytes @ 0xE000EDF0) - Data: 03 00 03 00  returns 0x01 (0001ms, 0273ms total)
T1A20 000:282 JLINK_WriteU32(0xE000EDF0, 0xA05F0003) -- CPU_WriteMem(4 bytes @ 0xE000EDF0)  returns 0x00 (0001ms, 0274ms total)
T1A20 000:283 JLINK_WriteU32(0xE000EDFC, 0x01000000) -- CPU_WriteMem(4 bytes @ 0xE000EDFC)  returns 0x00 (0002ms, 0276ms total)
T1A20 000:285 JLINK_GetHWStatus(...)  returns 0x00 (0000ms, 0276ms total)
T1A20 000:286 JLINK_GetNumBPUnits(Type = 0xFFFFFF00)  returns 0x04 (0000ms, 0276ms total)
T1A20 000:286 JLINK_GetNumBPUnits(Type = 0xF0)  returns 0x2000 (0000ms, 0276ms total)
T1A20 000:286 JLINK_GetNumWPUnits()  returns 0x02 (0000ms, 0276ms total)
T1A20 000:286 JLINK_GetSpeed()  returns 0x3E8 (0000ms, 0276ms total)
T1A20 000:286 JLINK_ReadMemU32(0xE000E004, 0x0001 Items, ...) -- CPU_ReadMem(4 bytes @ 0xE000E004) - Data: 00 00 00 00  returns 0x01 (0001ms, 0277ms total)
T1A20 000:287 JLINK_ReadReg(R15 (PC))  returns 0x000006D0 (0000ms, 0277ms total)
T1A20 000:287 JLINK_ReadReg(XPSR)  returns 0xC1000000 (0000ms, 0277ms total)
T1A20 000:384 JLINK_SetResetType(JLINKARM_CM3_RESET_TYPE_NORMAL)  returns JLINKARM_CM3_RESET_TYPE_NORMAL (0000ms, 0277ms total)
T1A20 000:384 JLINK_Reset() -- CPU_WriteMem(4 bytes @ 0xE000EDF0) -- CPU_WriteMem(4 bytes @ 0xE000EDFC) >0x35 TIF> -- CPU_WriteMem(4 bytes @ 0xE000ED0C) >0x0D TIF> >0x28 TIF> -- CPU_ReadMem(4 bytes @ 0xE000EDF0) -- CPU_ReadMem(4 bytes @ 0xE000EDF0) -- CPU_WriteMem(4 bytes @ 0xE000EDF0) -- CPU_WriteMem(4 bytes @ 0xE000EDFC) -- CPU is running -- CPU_ReadMem(4 bytes @ 0xE000EDF0) -- CPU_WriteMem(4 bytes @ 0xE0002000) -- CPU_ReadMem(4 bytes @ 0xE000EDFC) -- CPU_ReadMem(4 bytes @ 0xE0001000)
 -- CPU_WriteMem(4 bytes @ 0xE0001000) (0080ms, 0357ms total)
T1A20 000:464 JLINK_ReadReg(R15 (PC))  returns 0x000006D0 (0000ms, 0357ms total)
T1A20 000:464 JLINK_ReadReg(XPSR)  returns 0xC1000000 (0000ms, 0357ms total)
T1A20 000:464 JLINK_ReadMem (0x000006D0, 0x003C Bytes, ...) -- CPU_ReadMem(128 bytes @ 0x000006C0) -- Updating C cache (128 bytes @ 0x000006C0) -- Read from C cache (60 bytes @ 0x000006D0) - Data: 16 49 17 4C 24 68 8C 42 0B D1 16 4B 1B 68 99 42 ...  returns 0x00 (0003ms, 0360ms total)
T1A20 000:543 JLINK_ReadMem (0x40011000, 0x000C Bytes, ...) -- CPU_ReadMem(12 bytes @ 0x40011000) - Data: 00 00 00 00 00 00 00 00 00 00 00 00  returns 0x00 (0001ms, 0361ms total)
T1A20 000:544 JLINK_ReadMem (0x4001100C, 0x0004 Bytes, ...) -- CPU_ReadMem(4 bytes @ 0x4001100C) - Data: 00 00 00 00  returns 0x00 (0001ms, 0362ms total)
T1A20 000:545 JLINK_ReadMem (0x40011100, 0x0004 Bytes, ...) -- CPU_ReadMem(4 bytes @ 0x40011100) - Data: 00 00 00 00  returns 0x00 (0000ms, 0362ms total)
T1A20 000:545 JLINK_ReadMem (0x40011104, 0x0004 Bytes, ...) -- CPU_ReadMem(4 bytes @ 0x40011104) - Data: 00 00 00 00  returns 0x00 (0002ms, 0364ms total)
T1A20 000:547 JLINK_ReadMem (0x40011140, 0x000C Bytes, ...) -- CPU_ReadMem(12 bytes @ 0x40011140) - Data: 00 00 00 00 00 00 00 00 00 00 00 00  returns 0x00 (0001ms, 0365ms total)
T1A20 000:548 JLINK_ReadMem (0x4001114C, 0x0004 Bytes, ...) -- CPU_ReadMem(4 bytes @ 0x4001114C) - Data: 00 00 00 00  returns 0x00 (0000ms, 0365ms total)
T1A20 000:548 JLINK_ReadMem (0x40011304, 0x0004 Bytes, ...) -- CPU_ReadMem(4 bytes @ 0x40011304) - Data: 00 00 00 00  returns 0x00 (0001ms, 0366ms total)
T1A20 000:549 JLINK_ReadMem (0x40011308, 0x0004 Bytes, ...) -- CPU_ReadMem(4 bytes @ 0x40011308) - Data: 00 00 00 00  returns 0x00 (0001ms, 0367ms total)
T1A20 000:550 JLINK_ReadMem (0x40011340, 0x0008 Bytes, ...) -- CPU_ReadMem(8 bytes @ 0x40011340) - Data: 00 00 00 00 00 00 00 00  returns 0x00 (0001ms, 0368ms total)
T1A20 000:551 JLINK_ReadMem (0x40011348, 0x0004 Bytes, ...) -- CPU_ReadMem(4 bytes @ 0x40011348) - Data: 00 00 00 00  returns 0x00 (0001ms, 0369ms total)
T1A20 000:552 JLINK_ReadMem (0x40011504, 0x0004 Bytes, ...) -- CPU_ReadMem(4 bytes @ 0x40011504) - Data: 00 00 00 00  returns 0x00 (0001ms, 0370ms total)
T1A20 000:553 JLINK_ReadMem (0x40011508, 0x0004 Bytes, ...) -- CPU_ReadMem(4 bytes @ 0x40011508) - Data: 00 00 00 00  returns 0x00 (0001ms, 0371ms total)
T1A20 000:554 JLINK_ReadMem (0x40011540, 0x000C Bytes, ...) -- CPU_ReadMem(12 bytes @ 0x40011540) - Data: 00 00 00 00 00 00 00 00 00 00 00 00  returns 0x00 (0001ms, 0372ms total)
T1A20 000:555 JLINK_ReadMem (0x4001154C, 0x0004 Bytes, ...) -- CPU_ReadMem(4 bytes @ 0x4001154C) - Data: 00 00 00 00  returns 0x00 (0000ms, 0372ms total)
T1A20 000:555 JLINK_ReadMem (0x40011FFC, 0x0004 Bytes, ...) -- CPU_ReadMem(4 bytes @ 0x40011FFC) - Data: 01 00 00 00  returns 0x00 (0002ms, 0374ms total)
T1A20 001:521 JLINK_ReadMem (0x0001D01A, 0x0002 Bytes, ...) -- CPU_ReadMem(64 bytes @ 0x0001D000) -- Updating C cache (64 bytes @ 0x0001D000) -- Read from C cache (2 bytes @ 0x0001D01A) - Data: 68 46  returns 0x00 (0002ms, 0376ms total)
T1A20 001:523 JLINK_ReadMem (0x0001D01C, 0x003C Bytes, ...) -- CPU_ReadMem(64 bytes @ 0x0001D040) -- Updating C cache (64 bytes @ 0x0001D040) -- Read from C cache (60 bytes @ 0x0001D01C) - Data: 00 79 10 21 88 43 10 30 01 90 09 48 0C 30 00 90 ...  returns 0x00 (0001ms, 0377ms total)
T1A20 001:535 JLINK_ReadMem (0x0002035E, 0x0002 Bytes, ...) -- CPU_ReadMem(64 bytes @ 0x00020340) -- Updating C cache (64 bytes @ 0x00020340) -- Read from C cache (2 bytes @ 0x0002035E) - Data: 01 20  returns 0x00 (0002ms, 0379ms total)
T1A20 001:537 JLINK_ReadMem (0x00020360, 0x003C Bytes, ...) -- CPU_ReadMem(64 bytes @ 0x00020380) -- Updating C cache (64 bytes @ 0x00020380) -- Read from C cache (60 bytes @ 0x00020360) - Data: 04 49 08 70 10 BD 00 00 02 00 01 00 40 13 01 40 ...  returns 0x00 (0001ms, 0380ms total)
T2E20 001:880 JLINK_SetBPEx(Addr = 0x0001E8F4, Type = 0xFFFFFFF2)  returns 0x00000001 (0000ms, 0380ms total)
T2E20 001:880 JLINK_Go() -- CPU_WriteMem(4 bytes @ 0xE0002000) -- CPU_ReadMem(4 bytes @ 0xE0001000) -- CPU_WriteMem(4 bytes @ 0xE0001000) -- CPU_WriteMem(4 bytes @ 0xE0002008) -- CPU_WriteMem(4 bytes @ 0xE000200C) -- CPU_WriteMem(4 bytes @ 0xE0002010) -- CPU_WriteMem(4 bytes @ 0xE0002014) -- CPU_WriteMem(4 bytes @ 0xE0001004) (0007ms, 0387ms total)
T2E20 001:987 JLINK_IsHalted()  returns TRUE (0007ms, 0394ms total)
T2E20 001:994 JLINK_Halt()  returns 0x00 (0000ms, 0387ms total)
T2E20 001:994 JLINK_IsHalted()  returns TRUE (0000ms, 0387ms total)
T2E20 001:994 JLINK_IsHalted()  returns TRUE (0000ms, 0387ms total)
T2E20 001:994 JLINK_IsHalted()  returns TRUE (0000ms, 0387ms total)
T2E20 001:994 JLINK_ReadReg(R15 (PC))  returns 0x0001E8F4 (0000ms, 0387ms total)
T2E20 001:994 JLINK_ReadReg(XPSR)  returns 0x61000000 (0000ms, 0387ms total)
T2E20 001:994 JLINK_ClrBPEx(BPHandle = 0x00000001)  returns 0x00 (0000ms, 0387ms total)
T2E20 001:994 JLINK_ReadMemU32(0xE000ED30, 0x0001 Items, ...) -- CPU_ReadMem(4 bytes @ 0xE000ED30) - Data: 02 00 00 00  returns 0x01 (0001ms, 0388ms total)
T2E20 001:995 JLINK_ReadMemU32(0xE0001028, 0x0001 Items, ...) -- CPU_ReadMem(4 bytes @ 0xE0001028) - Data: 00 00 00 00  returns 0x01 (0001ms, 0389ms total)
T2E20 001:996 JLINK_ReadMemU32(0xE0001038, 0x0001 Items, ...) -- CPU_ReadMem(4 bytes @ 0xE0001038) - Data: 00 00 00 00  returns 0x01 (0001ms, 0390ms total)
T2E20 001:997 JLINK_ReadReg(R0)  returns 0x0001E8F5 (0000ms, 0390ms total)
T2E20 001:997 JLINK_ReadReg(R1)  returns 0x20004E50 (0000ms, 0390ms total)
T2E20 001:997 JLINK_ReadReg(R2)  returns 0x00000000 (0000ms, 0390ms total)
T2E20 001:997 JLINK_ReadReg(R3)  returns 0x0001BA21 (0000ms, 0390ms total)
T2E20 001:997 JLINK_ReadReg(R4)  returns 0x00021834 (0000ms, 0390ms total)
T2E20 001:997 JLINK_ReadReg(R5)  returns 0x00000001 (0000ms, 0390ms total)
T2E20 001:997 JLINK_ReadReg(R6)  returns 0x00021834 (0000ms, 0390ms total)
T2E20 001:997 JLINK_ReadReg(R7)  returns 0xFFFFFFFF (0000ms, 0390ms total)
T2E20 001:997 JLINK_ReadReg(R8)  returns 0xFFFFFFFF (0000ms, 0390ms total)
T2E20 001:997 JLINK_ReadReg(R9)  returns 0xFFFFFFFF (0000ms, 0390ms total)
T2E20 001:997 JLINK_ReadReg(R10)  returns 0xFFFFFFFF (0000ms, 0390ms total)
T2E20 001:997 JLINK_ReadReg(R11)  returns 0xFFFFFFFF (0000ms, 0390ms total)
T2E20 001:997 JLINK_ReadReg(R12)  returns 0xFFFFFFFF (0000ms, 0390ms total)
T2E20 001:997 JLINK_ReadReg(R13 (SP))  returns 0x20004E50 (0000ms, 0390ms total)
T2E20 001:997 JLINK_ReadReg(R14)  returns 0x0001B24D (0000ms, 0390ms total)
T2E20 001:997 JLINK_ReadReg(R15 (PC))  returns 0x0001E8F4 (0000ms, 0390ms total)
T2E20 001:997 JLINK_ReadReg(XPSR)  returns 0x61000000 (0000ms, 0390ms total)
T2E20 001:997 JLINK_ReadReg(MSP)  returns 0x20004E50 (0000ms, 0390ms total)
T2E20 001:997 JLINK_ReadReg(PSP)  returns 0xFFFFFFFC (0000ms, 0390ms total)
T2E20 001:997 JLINK_ReadReg(CFBP)  returns 0x00000000 (0000ms, 0390ms total)
T1A20 001:997 JLINK_ReadMem (0x20004E48, 0x0001 Bytes, ...) -- CPU_ReadMem(64 bytes @ 0x20004E40) -- Updating C cache (64 bytes @ 0x20004E40) -- Read from C cache (1 bytes @ 0x20004E48) - Data: 00  returns 0x00 (0002ms, 0392ms total)
T1A20 001:999 JLINK_ReadMem (0x00000000, 0x0004 Bytes, ...) -- CPU_ReadMem(64 bytes @ 0x00000000) -- Updating C cache (64 bytes @ 0x00000000) -- Read from C cache (4 bytes @ 0x00000000) - Data: C0 07 00 00  returns 0x00 (0001ms, 0393ms total)
T1A20 002:005 JLINK_ReadMem (0x40011000, 0x000C Bytes, ...) -- CPU_ReadMem(12 bytes @ 0x40011000) - Data: 00 00 00 00 00 00 00 00 00 00 00 00  returns 0x00 (0002ms, 0395ms total)
T1A20 002:007 JLINK_ReadMem (0x4001100C, 0x0004 Bytes, ...) -- CPU_ReadMem(4 bytes @ 0x4001100C) - Data: 00 00 00 00  returns 0x00 (0001ms, 0396ms total)
T1A20 002:008 JLINK_ReadMem (0x40011100, 0x0004 Bytes, ...) -- CPU_ReadMem(4 bytes @ 0x40011100) - Data: 00 00 00 00  returns 0x00 (0000ms, 0396ms total)
T1A20 002:008 JLINK_ReadMem (0x40011104, 0x0004 Bytes, ...) -- CPU_ReadMem(4 bytes @ 0x40011104) - Data: 00 00 00 00  returns 0x00 (0001ms, 0397ms total)
T1A20 002:009 JLINK_ReadMem (0x40011140, 0x000C Bytes, ...) -- CPU_ReadMem(12 bytes @ 0x40011140) - Data: 00 00 00 00 00 00 00 00 00 00 00 00  returns 0x00 (0001ms, 0398ms total)
T1A20 002:010 JLINK_ReadMem (0x4001114C, 0x0004 Bytes, ...) -- CPU_ReadMem(4 bytes @ 0x4001114C) - Data: 00 00 00 00  returns 0x00 (0001ms, 0399ms total)
T1A20 002:011 JLINK_ReadMem (0x40011304, 0x0004 Bytes, ...) -- CPU_ReadMem(4 bytes @ 0x40011304) - Data: 00 00 00 00  returns 0x00 (0001ms, 0400ms total)
T1A20 002:012 JLINK_ReadMem (0x40011308, 0x0004 Bytes, ...) -- CPU_ReadMem(4 bytes @ 0x40011308) - Data: 00 00 00 00  returns 0x00 (0001ms, 0401ms total)
T1A20 002:013 JLINK_ReadMem (0x40011340, 0x0008 Bytes, ...) -- CPU_ReadMem(8 bytes @ 0x40011340) - Data: 00 00 00 00 00 00 00 00  returns 0x00 (0002ms, 0403ms total)
T1A20 002:015 JLINK_ReadMem (0x40011348, 0x0004 Bytes, ...) -- CPU_ReadMem(4 bytes @ 0x40011348) - Data: 00 00 00 00  returns 0x00 (0000ms, 0403ms total)
T1A20 002:015 JLINK_ReadMem (0x40011504, 0x0004 Bytes, ...) -- CPU_ReadMem(4 bytes @ 0x40011504) - Data: 00 00 00 00  returns 0x00 (0002ms, 0405ms total)
T1A20 002:017 JLINK_ReadMem (0x40011508, 0x0004 Bytes, ...) -- CPU_ReadMem(4 bytes @ 0x40011508) - Data: 00 00 00 00  returns 0x00 (0001ms, 0406ms total)
T1A20 002:018 JLINK_ReadMem (0x40011540, 0x000C Bytes, ...) -- CPU_ReadMem(12 bytes @ 0x40011540) - Data: 00 00 00 00 00 00 00 00 00 00 00 00  returns 0x00 (0000ms, 0406ms total)
T1A20 002:018 JLINK_ReadMem (0x4001154C, 0x0004 Bytes, ...) -- CPU_ReadMem(4 bytes @ 0x4001154C) - Data: 00 00 00 00  returns 0x00 (0001ms, 0407ms total)
T1A20 002:019 JLINK_ReadMem (0x40011FFC, 0x0004 Bytes, ...) -- CPU_ReadMem(4 bytes @ 0x40011FFC) - Data: 01 00 00 00  returns 0x00 (0001ms, 0408ms total)
T1A20 002:025 JLINK_ReadMem (0x0001E7FC, 0x0004 Bytes, ...) -- CPU_ReadMem(64 bytes @ 0x0001E7C0) -- Updating C cache (64 bytes @ 0x0001E7C0) -- Read from C cache (4 bytes @ 0x0001E7FC) - Data: F8 B5 05 46  returns 0x00 (0002ms, 0410ms total)
T1A20 002:027 JLINK_ReadMem (0x0001E800, 0x0038 Bytes, ...) -- CPU_ReadMem(64 bytes @ 0x0001E800) -- Updating C cache (64 bytes @ 0x0001E800) -- Read from C cache (56 bytes @ 0x0001E800) - Data: 37 48 06 68 5B E0 00 2D 02 D0 2C 46 E5 69 29 E0 ...  returns 0x00 (0002ms, 0412ms total)
T1A20 002:029 JLINK_ReadMem (0x0001E838, 0x003C Bytes, ...) -- CPU_ReadMem(64 bytes @ 0x0001E840) -- Updating C cache (64 bytes @ 0x0001E840) -- Read from C cache (60 bytes @ 0x0001E838) - Data: 01 78 01 29 02 D1 21 7C 00 29 00 D0 3B E0 81 68 ...  returns 0x00 (0001ms, 0413ms total)
T1A20 002:030 JLINK_ReadMem (0x0001E874, 0x003C Bytes, ...) -- CPU_ReadMem(64 bytes @ 0x0001E880) -- Updating C cache (64 bytes @ 0x0001E880) -- Read from C cache (60 bytes @ 0x0001E874) - Data: 08 D2 1D 49 60 68 09 68 02 F0 75 F9 A1 68 40 18 ...  returns 0x00 (0002ms, 0415ms total)
T1A20 002:032 JLINK_ReadMem (0x0001E8B0, 0x003C Bytes, ...) -- CPU_ReadMem(64 bytes @ 0x0001E8C0) -- Updating C cache (64 bytes @ 0x0001E8C0) -- Read from C cache (60 bytes @ 0x0001E8B0) - Data: 20 74 00 20 E0 61 20 46 02 F0 CC F9 00 BF 00 2D ...  returns 0x00 (0002ms, 0417ms total)
T1A20 002:034 JLINK_ReadMem (0x0001E8F2, 0x0002 Bytes, ...) -- Read from C cache (2 bytes @ 0x0001E8F2) - Data: 7F 00  returns 0x00 (0000ms, 0417ms total)
T1A20 002:034 JLINK_ReadMem (0x0001E8F4, 0x003C Bytes, ...) -- CPU_ReadMem(64 bytes @ 0x0001E900) -- Updating C cache (64 bytes @ 0x0001E900) -- Read from C cache (60 bytes @ 0x0001E8F4) - Data: 08 B5 00 20 01 F0 9E F9 04 46 00 BF 25 46 00 2D ...  returns 0x00 (0002ms, 0419ms total)
T1A20 005:750 JLINK_ReadMem (0x0001D01A, 0x0002 Bytes, ...) -- CPU_ReadMem(64 bytes @ 0x0001D000) -- Updating C cache (64 bytes @ 0x0001D000) -- Read from C cache (2 bytes @ 0x0001D01A) - Data: 68 46  returns 0x00 (0002ms, 0421ms total)
T1A20 005:752 JLINK_ReadMem (0x0001D01C, 0x003C Bytes, ...) -- CPU_ReadMem(64 bytes @ 0x0001D040) -- Updating C cache (64 bytes @ 0x0001D040) -- Read from C cache (60 bytes @ 0x0001D01C) - Data: 00 79 10 21 88 43 10 30 01 90 09 48 0C 30 00 90 ...  returns 0x00 (0001ms, 0422ms total)
T2E20 009:054 JLINK_SetBPEx(Addr = 0x0001CFCA, Type = 0xFFFFFFF2)  returns 0x00000002 (0000ms, 0422ms total)
T2E20 009:054 JLINK_Go() -- CPU_WriteMem(4 bytes @ 0xE0002000) -- CPU_ReadMem(4 bytes @ 0xE0001000) -- CPU_WriteMem(4 bytes @ 0xE0001000) -- CPU_WriteMem(4 bytes @ 0xE0002008) (0007ms, 0429ms total)
T2E20 009:162 JLINK_IsHalted()  returns FALSE (0001ms, 0430ms total)
T2E20 009:263 JLINK_IsHalted()  returns FALSE (0001ms, 0430ms total)
T2E20 009:364 JLINK_IsHalted()  returns FALSE (0002ms, 0431ms total)
T2E20 009:466 JLINK_IsHalted()  returns TRUE (0006ms, 0435ms total)
T2E20 009:472 JLINK_Halt()  returns 0x00 (0000ms, 0429ms total)
T2E20 009:472 JLINK_IsHalted()  returns TRUE (0000ms, 0429ms total)
T2E20 009:472 JLINK_IsHalted()  returns TRUE (0000ms, 0429ms total)
T2E20 009:472 JLINK_IsHalted()  returns TRUE (0000ms, 0429ms total)
T2E20 009:472 JLINK_ReadReg(R15 (PC))  returns 0x0001CFCA (0000ms, 0429ms total)
T2E20 009:472 JLINK_ReadReg(XPSR)  returns 0x61000000 (0000ms, 0429ms total)
T2E20 009:472 JLINK_ClrBPEx(BPHandle = 0x00000002)  returns 0x00 (0000ms, 0429ms total)
T2E20 009:472 JLINK_ReadMemU32(0xE000ED30, 0x0001 Items, ...) -- CPU_ReadMem(4 bytes @ 0xE000ED30) - Data: 02 00 00 00  returns 0x01 (0001ms, 0430ms total)
T2E20 009:473 JLINK_ReadMemU32(0xE0001028, 0x0001 Items, ...) -- CPU_ReadMem(4 bytes @ 0xE0001028) - Data: 00 00 00 00  returns 0x01 (0001ms, 0431ms total)
T2E20 009:474 JLINK_ReadMemU32(0xE0001038, 0x0001 Items, ...) -- CPU_ReadMem(4 bytes @ 0xE0001038) - Data: 00 00 00 00  returns 0x01 (0001ms, 0432ms total)
T2E20 009:475 JLINK_ReadReg(R0)  returns 0x000215EC (0000ms, 0432ms total)
T2E20 009:475 JLINK_ReadReg(R1)  returns 0x00000000 (0000ms, 0432ms total)
T2E20 009:475 JLINK_ReadReg(R2)  returns 0x20004DC0 (0000ms, 0432ms total)
T2E20 009:475 JLINK_ReadReg(R3)  returns 0x20002438 (0000ms, 0432ms total)
T2E20 009:475 JLINK_ReadReg(R4)  returns 0x00000000 (0000ms, 0432ms total)
T2E20 009:475 JLINK_ReadReg(R5)  returns 0x00000000 (0000ms, 0432ms total)
T2E20 009:475 JLINK_ReadReg(R6)  returns 0x00000000 (0000ms, 0432ms total)
T2E20 009:475 JLINK_ReadReg(R7)  returns 0xFFFFFFFF (0000ms, 0432ms total)
T2E20 009:475 JLINK_ReadReg(R8)  returns 0xFFFFFFFF (0000ms, 0432ms total)
T2E20 009:475 JLINK_ReadReg(R9)  returns 0xFFFFFFFF (0000ms, 0432ms total)
T2E20 009:475 JLINK_ReadReg(R10)  returns 0xFFFFFFFF (0000ms, 0432ms total)
T2E20 009:475 JLINK_ReadReg(R11)  returns 0xFFFFFFFF (0000ms, 0432ms total)
T2E20 009:475 JLINK_ReadReg(R12)  returns 0xFFFFFFFF (0000ms, 0432ms total)
T2E20 009:475 JLINK_ReadReg(R13 (SP))  returns 0x20004E18 (0000ms, 0432ms total)
T2E20 009:475 JLINK_ReadReg(R14)  returns 0x0001DE65 (0000ms, 0432ms total)
T2E20 009:475 JLINK_ReadReg(R15 (PC))  returns 0x0001CFCA (0000ms, 0432ms total)
T2E20 009:475 JLINK_ReadReg(XPSR)  returns 0x61000000 (0000ms, 0432ms total)
T2E20 009:475 JLINK_ReadReg(MSP)  returns 0x20004E18 (0000ms, 0432ms total)
T2E20 009:475 JLINK_ReadReg(PSP)  returns 0xFFFFFFFC (0000ms, 0432ms total)
T2E20 009:475 JLINK_ReadReg(CFBP)  returns 0x00000000 (0000ms, 0432ms total)
T1A20 009:475 JLINK_ReadMem (0x20004E34, 0x0004 Bytes, ...) -- CPU_ReadMem(64 bytes @ 0x20004E00) -- Updating C cache (64 bytes @ 0x20004E00) -- Read from C cache (4 bytes @ 0x20004E34) - Data: 3F 07 02 00  returns 0x00 (0002ms, 0434ms total)
T1A20 009:477 JLINK_ReadMem (0x20004E2C, 0x0004 Bytes, ...) -- Read from C cache (4 bytes @ 0x20004E2C) - Data: 00 00 00 00  returns 0x00 (0000ms, 0434ms total)
T1A20 009:477 JLINK_ReadMem (0x20004E30, 0x0004 Bytes, ...) -- Read from C cache (4 bytes @ 0x20004E30) - Data: 00 00 00 00  returns 0x00 (0000ms, 0434ms total)
T1A20 009:477 JLINK_ReadMem (0x20004E44, 0x0004 Bytes, ...) -- CPU_ReadMem(64 bytes @ 0x20004E40) -- Updating C cache (64 bytes @ 0x20004E40) -- Read from C cache (4 bytes @ 0x20004E44) - Data: 61 E9 01 00  returns 0x00 (0002ms, 0436ms total)
T1A20 009:479 JLINK_ReadMem (0x20004E3C, 0x0004 Bytes, ...) -- Read from C cache (4 bytes @ 0x20004E3C) - Data: 00 00 00 00  returns 0x00 (0000ms, 0436ms total)
T1A20 009:479 JLINK_ReadMem (0x20004E40, 0x0004 Bytes, ...) -- Read from C cache (4 bytes @ 0x20004E40) - Data: 00 00 00 00  returns 0x00 (0000ms, 0436ms total)
T1A20 009:479 JLINK_ReadMem (0x20004E4C, 0x0004 Bytes, ...) -- Read from C cache (4 bytes @ 0x20004E4C) - Data: 4D B2 01 00  returns 0x00 (0000ms, 0436ms total)
T1A20 009:485 JLINK_ReadMem (0x20004E48, 0x0001 Bytes, ...) -- Read from C cache (1 bytes @ 0x20004E48) - Data: 00  returns 0x00 (0000ms, 0436ms total)
T1A20 009:486 JLINK_ReadMem (0x00000000, 0x0004 Bytes, ...) -- CPU_ReadMem(64 bytes @ 0x00000000) -- Updating C cache (64 bytes @ 0x00000000) -- Read from C cache (4 bytes @ 0x00000000) - Data: C0 07 00 00  returns 0x00 (0003ms, 0439ms total)
T1A20 009:490 JLINK_ReadMem (0x40011000, 0x000C Bytes, ...) -- CPU_ReadMem(12 bytes @ 0x40011000) - Data: 00 00 00 00 00 00 00 00 00 00 00 00  returns 0x00 (0001ms, 0440ms total)
T1A20 009:491 JLINK_ReadMem (0x4001100C, 0x0004 Bytes, ...) -- CPU_ReadMem(4 bytes @ 0x4001100C) - Data: 00 00 00 00  returns 0x00 (0001ms, 0441ms total)
T1A20 009:492 JLINK_ReadMem (0x40011100, 0x0004 Bytes, ...) -- CPU_ReadMem(4 bytes @ 0x40011100) - Data: 00 00 00 00  returns 0x00 (0001ms, 0442ms total)
T1A20 009:493 JLINK_ReadMem (0x40011104, 0x0004 Bytes, ...) -- CPU_ReadMem(4 bytes @ 0x40011104) - Data: 00 00 00 00  returns 0x00 (0001ms, 0443ms total)
T1A20 009:494 JLINK_ReadMem (0x40011140, 0x000C Bytes, ...) -- CPU_ReadMem(12 bytes @ 0x40011140) - Data: 00 00 00 00 00 00 00 00 00 00 00 00  returns 0x00 (0002ms, 0445ms total)
T1A20 009:496 JLINK_ReadMem (0x4001114C, 0x0004 Bytes, ...) -- CPU_ReadMem(4 bytes @ 0x4001114C) - Data: 00 00 00 00  returns 0x00 (0001ms, 0446ms total)
T1A20 009:497 JLINK_ReadMem (0x40011304, 0x0004 Bytes, ...) -- CPU_ReadMem(4 bytes @ 0x40011304) - Data: 00 00 00 00  returns 0x00 (0001ms, 0447ms total)
T1A20 009:498 JLINK_ReadMem (0x40011308, 0x0004 Bytes, ...) -- CPU_ReadMem(4 bytes @ 0x40011308) - Data: 00 00 00 00  returns 0x00 (0001ms, 0448ms total)
T1A20 009:499 JLINK_ReadMem (0x40011340, 0x0008 Bytes, ...) -- CPU_ReadMem(8 bytes @ 0x40011340) - Data: 00 00 00 00 00 00 00 00  returns 0x00 (0001ms, 0449ms total)
T1A20 009:500 JLINK_ReadMem (0x40011348, 0x0004 Bytes, ...) -- CPU_ReadMem(4 bytes @ 0x40011348) - Data: 00 00 00 00  returns 0x00 (0000ms, 0449ms total)
T1A20 009:500 JLINK_ReadMem (0x40011504, 0x0004 Bytes, ...) -- CPU_ReadMem(4 bytes @ 0x40011504) - Data: 00 00 00 00  returns 0x00 (0001ms, 0450ms total)
T1A20 009:501 JLINK_ReadMem (0x40011508, 0x0004 Bytes, ...) -- CPU_ReadMem(4 bytes @ 0x40011508) - Data: 00 00 00 00  returns 0x00 (0002ms, 0452ms total)
T1A20 009:503 JLINK_ReadMem (0x40011540, 0x000C Bytes, ...) -- CPU_ReadMem(12 bytes @ 0x40011540) - Data: 00 00 00 00 00 00 00 00 00 00 00 00  returns 0x00 (0000ms, 0452ms total)
T1A20 009:503 JLINK_ReadMem (0x4001154C, 0x0004 Bytes, ...) -- CPU_ReadMem(4 bytes @ 0x4001154C) - Data: 00 00 00 00  returns 0x00 (0001ms, 0453ms total)
T1A20 009:504 JLINK_ReadMem (0x40011FFC, 0x0004 Bytes, ...) -- CPU_ReadMem(4 bytes @ 0x40011FFC) - Data: 01 00 00 00  returns 0x00 (0001ms, 0454ms total)
T1A20 009:510 JLINK_ReadMem (0x0001CFBE, 0x0002 Bytes, ...) -- CPU_ReadMem(64 bytes @ 0x0001CF80) -- Updating C cache (64 bytes @ 0x0001CF80) -- Read from C cache (2 bytes @ 0x0001CFBE) - Data: 00 20  returns 0x00 (0002ms, 0456ms total)
T1A20 009:512 JLINK_ReadMem (0x0001CFC0, 0x003C Bytes, ...) -- CPU_ReadMem(64 bytes @ 0x0001CFC0) -- Updating C cache (64 bytes @ 0x0001CFC0) -- Read from C cache (60 bytes @ 0x0001CFC0) - Data: 04 90 24 48 01 78 04 91 01 91 68 46 00 79 04 21 ...  returns 0x00 (0002ms, 0458ms total)
T1A20 018:598 JLINK_ReadMem (0x20004E1C, 0x0001 Bytes, ...) -- Read from C cache (1 bytes @ 0x20004E1C) - Data: 00  returns 0x00 (0000ms, 0458ms total)
T2E20 020:485 JLINK_Step() -- Read from C cache (2 bytes @ 0x0001CFCA) -- CPU_ReadMem(4 bytes @ 0xE000ED18) -- CPU_WriteMem(4 bytes @ 0xE000ED18) -- CPU_ReadMem(4 bytes @ 0xE000ED18) -- CPU_WriteMem(4 bytes @ 0xE000ED18) -- CPU_ReadMem(4 bytes @ 0xE0001004) -- Simulated  returns 0x00 (0006ms, 0464ms total)
T2E20 020:491 JLINK_ReadReg(R15 (PC))  returns 0x0001CFCC (0000ms, 0464ms total)
T2E20 020:491 JLINK_ReadReg(XPSR)  returns 0x61000000 (0000ms, 0464ms total)
T2E20 020:491 JLINK_Step() -- Read from C cache (2 bytes @ 0x0001CFCC) -- Read from C cache (1 bytes @ 0x20004E1C) -- Simulated  returns 0x00 (0000ms, 0464ms total)
T2E20 020:491 JLINK_ReadReg(R15 (PC))  returns 0x0001CFCE (0000ms, 0464ms total)
T2E20 020:491 JLINK_ReadReg(XPSR)  returns 0x61000000 (0000ms, 0464ms total)
T2E20 020:491 JLINK_Step() -- Read from C cache (2 bytes @ 0x0001CFCE) -- Simulated  returns 0x00 (0000ms, 0464ms total)
T2E20 020:491 JLINK_ReadReg(R15 (PC))  returns 0x0001CFD0 (0000ms, 0464ms total)
T2E20 020:492 JLINK_ReadReg(XPSR)  returns 0x21000000 (0000ms, 0464ms total)
T2E20 020:492 JLINK_Step() -- Read from C cache (2 bytes @ 0x0001CFD0) -- Simulated  returns 0x00 (0000ms, 0464ms total)
T2E20 020:492 JLINK_ReadReg(R15 (PC))  returns 0x0001CFD2 (0000ms, 0464ms total)
T2E20 020:492 JLINK_ReadReg(XPSR)  returns 0x61000000 (0000ms, 0464ms total)
T2E20 020:492 JLINK_Step() -- Read from C cache (2 bytes @ 0x0001CFD2) -- Simulated  returns 0x00 (0000ms, 0464ms total)
T2E20 020:492 JLINK_ReadReg(R15 (PC))  returns 0x0001CFD4 (0000ms, 0464ms total)
T2E20 020:492 JLINK_ReadReg(XPSR)  returns 0x01000000 (0000ms, 0464ms total)
T2E20 020:492 JLINK_Step() -- Read from C cache (2 bytes @ 0x0001CFD4) -- CPU_WriteMem(4 bytes @ 0x20004E1C) -- Simulated  returns 0x00 (0001ms, 0465ms total)
T2E20 020:493 JLINK_ReadReg(R15 (PC))  returns 0x0001CFD6 (0000ms, 0465ms total)
T2E20 020:493 JLINK_ReadReg(XPSR)  returns 0x01000000 (0000ms, 0465ms total)
T2E20 020:493 JLINK_ReadReg(R0)  returns 0x00000000 (0000ms, 0465ms total)
T2E20 020:493 JLINK_ReadReg(R1)  returns 0x00000004 (0000ms, 0465ms total)
T2E20 020:493 JLINK_ReadReg(R2)  returns 0x20004DC0 (0000ms, 0465ms total)
T2E20 020:493 JLINK_ReadReg(R3)  returns 0x20002438 (0000ms, 0465ms total)
T2E20 020:493 JLINK_ReadReg(R4)  returns 0x00000000 (0000ms, 0465ms total)
T2E20 020:493 JLINK_ReadReg(R5)  returns 0x00000000 (0000ms, 0465ms total)
T2E20 020:493 JLINK_ReadReg(R6)  returns 0x00000000 (0000ms, 0465ms total)
T2E20 020:493 JLINK_ReadReg(R7)  returns 0xFFFFFFFF (0000ms, 0465ms total)
T2E20 020:493 JLINK_ReadReg(R8)  returns 0xFFFFFFFF (0000ms, 0465ms total)
T2E20 020:493 JLINK_ReadReg(R9)  returns 0xFFFFFFFF (0000ms, 0465ms total)
T2E20 020:493 JLINK_ReadReg(R10)  returns 0xFFFFFFFF (0000ms, 0465ms total)
T2E20 020:493 JLINK_ReadReg(R11)  returns 0xFFFFFFFF (0000ms, 0465ms total)
T2E20 020:493 JLINK_ReadReg(R12)  returns 0xFFFFFFFF (0000ms, 0465ms total)
T2E20 020:493 JLINK_ReadReg(R13 (SP))  returns 0x20004E18 (0000ms, 0465ms total)
T2E20 020:493 JLINK_ReadReg(R14)  returns 0x0001DE65 (0000ms, 0465ms total)
T2E20 020:493 JLINK_ReadReg(R15 (PC))  returns 0x0001CFD6 (0000ms, 0465ms total)
T2E20 020:493 JLINK_ReadReg(XPSR)  returns 0x01000000 (0000ms, 0465ms total)
T2E20 020:493 JLINK_ReadReg(MSP)  returns 0x20004E18 (0000ms, 0465ms total)
T2E20 020:493 JLINK_ReadReg(PSP)  returns 0xFFFFFFFC (0000ms, 0465ms total)
T2E20 020:493 JLINK_ReadReg(CFBP)  returns 0x00000000 (0000ms, 0465ms total)
T1A20 020:495 JLINK_ReadMem (0x20004E34, 0x0004 Bytes, ...) -- CPU_ReadMem(64 bytes @ 0x20004E00) -- Updating C cache (64 bytes @ 0x20004E00) -- Read from C cache (4 bytes @ 0x20004E34) - Data: 3F 07 02 00  returns 0x00 (0002ms, 0467ms total)
T1A20 020:497 JLINK_ReadMem (0x20004E2C, 0x0004 Bytes, ...) -- Read from C cache (4 bytes @ 0x20004E2C) - Data: 00 00 00 00  returns 0x00 (0000ms, 0467ms total)
T1A20 020:497 JLINK_ReadMem (0x20004E30, 0x0004 Bytes, ...) -- Read from C cache (4 bytes @ 0x20004E30) - Data: 00 00 00 00  returns 0x00 (0000ms, 0467ms total)
T1A20 020:497 JLINK_ReadMem (0x20004E44, 0x0004 Bytes, ...) -- Read from C cache (4 bytes @ 0x20004E44) - Data: 61 E9 01 00  returns 0x00 (0000ms, 0467ms total)
T1A20 020:497 JLINK_ReadMem (0x20004E3C, 0x0004 Bytes, ...) -- Read from C cache (4 bytes @ 0x20004E3C) - Data: 00 00 00 00  returns 0x00 (0000ms, 0467ms total)
T1A20 020:497 JLINK_ReadMem (0x20004E40, 0x0004 Bytes, ...) -- Read from C cache (4 bytes @ 0x20004E40) - Data: 00 00 00 00  returns 0x00 (0000ms, 0467ms total)
T1A20 020:497 JLINK_ReadMem (0x20004E4C, 0x0004 Bytes, ...) -- Read from C cache (4 bytes @ 0x20004E4C) - Data: 4D B2 01 00  returns 0x00 (0000ms, 0467ms total)
T1A20 020:498 JLINK_ReadMem (0x20004E1C, 0x0001 Bytes, ...) -- Read from C cache (1 bytes @ 0x20004E1C) - Data: 04  returns 0x00 (0000ms, 0467ms total)
T1A20 020:499 JLINK_ReadMem (0x20004E48, 0x0001 Bytes, ...) -- Read from C cache (1 bytes @ 0x20004E48) - Data: 00  returns 0x00 (0000ms, 0467ms total)
T1A20 020:499 JLINK_ReadMem (0x00000000, 0x0004 Bytes, ...) -- Read from C cache (4 bytes @ 0x00000000) - Data: C0 07 00 00  returns 0x00 (0000ms, 0467ms total)
T1A20 020:500 JLINK_ReadMem (0x40011000, 0x000C Bytes, ...) -- CPU_ReadMem(12 bytes @ 0x40011000) - Data: 00 00 00 00 00 00 00 00 00 00 00 00  returns 0x00 (0001ms, 0468ms total)
T1A20 020:501 JLINK_ReadMem (0x4001100C, 0x0004 Bytes, ...) -- CPU_ReadMem(4 bytes @ 0x4001100C) - Data: 00 00 00 00  returns 0x00 (0001ms, 0469ms total)
T1A20 020:502 JLINK_ReadMem (0x40011100, 0x0004 Bytes, ...) -- CPU_ReadMem(4 bytes @ 0x40011100) - Data: 00 00 00 00  returns 0x00 (0001ms, 0470ms total)
T1A20 020:503 JLINK_ReadMem (0x40011104, 0x0004 Bytes, ...) -- CPU_ReadMem(4 bytes @ 0x40011104) - Data: 00 00 00 00  returns 0x00 (0001ms, 0471ms total)
T1A20 020:504 JLINK_ReadMem (0x40011140, 0x000C Bytes, ...) -- CPU_ReadMem(12 bytes @ 0x40011140) - Data: 00 00 00 00 00 00 00 00 00 00 00 00  returns 0x00 (0001ms, 0472ms total)
T1A20 020:505 JLINK_ReadMem (0x4001114C, 0x0004 Bytes, ...) -- CPU_ReadMem(4 bytes @ 0x4001114C) - Data: 00 00 00 00  returns 0x00 (0001ms, 0473ms total)
T1A20 020:506 JLINK_ReadMem (0x40011304, 0x0004 Bytes, ...) -- CPU_ReadMem(4 bytes @ 0x40011304) - Data: 00 00 00 00  returns 0x00 (0001ms, 0474ms total)
T1A20 020:507 JLINK_ReadMem (0x40011308, 0x0004 Bytes, ...) -- CPU_ReadMem(4 bytes @ 0x40011308) - Data: 00 00 00 00  returns 0x00 (0001ms, 0475ms total)
T1A20 020:508 JLINK_ReadMem (0x40011340, 0x0008 Bytes, ...) -- CPU_ReadMem(8 bytes @ 0x40011340) - Data: 00 00 00 00 00 00 00 00  returns 0x00 (0002ms, 0477ms total)
T1A20 020:510 JLINK_ReadMem (0x40011348, 0x0004 Bytes, ...) -- CPU_ReadMem(4 bytes @ 0x40011348) - Data: 00 00 00 00  returns 0x00 (0000ms, 0477ms total)
T1A20 020:510 JLINK_ReadMem (0x40011504, 0x0004 Bytes, ...) -- CPU_ReadMem(4 bytes @ 0x40011504) - Data: 00 00 00 00  returns 0x00 (0001ms, 0478ms total)
T1A20 020:511 JLINK_ReadMem (0x40011508, 0x0004 Bytes, ...) -- CPU_ReadMem(4 bytes @ 0x40011508) - Data: 00 00 00 00  returns 0x00 (0002ms, 0480ms total)
T1A20 020:513 JLINK_ReadMem (0x40011540, 0x000C Bytes, ...) -- CPU_ReadMem(12 bytes @ 0x40011540) - Data: 00 00 00 00 00 00 00 00 00 00 00 00  returns 0x00 (0000ms, 0480ms total)
T1A20 020:513 JLINK_ReadMem (0x4001154C, 0x0004 Bytes, ...) -- CPU_ReadMem(4 bytes @ 0x4001154C) - Data: 00 00 00 00  returns 0x00 (0001ms, 0481ms total)
T1A20 020:514 JLINK_ReadMem (0x40011FFC, 0x0004 Bytes, ...) -- CPU_ReadMem(4 bytes @ 0x40011FFC) - Data: 01 00 00 00  returns 0x00 (0001ms, 0482ms total)
T1A20 020:522 JLINK_ReadMem (0x0001CFCA, 0x0002 Bytes, ...) -- Read from C cache (2 bytes @ 0x0001CFCA) - Data: 68 46  returns 0x00 (0000ms, 0482ms total)
T1A20 020:522 JLINK_ReadMem (0x0001CFCC, 0x0034 Bytes, ...) -- Read from C cache (52 bytes @ 0x0001CFCC) - Data: 00 79 04 21 88 43 01 1D 01 91 68 46 00 79 10 21 ...  returns 0x00 (0000ms, 0482ms total)
T1A20 020:522 JLINK_ReadMem (0x0001D000, 0x0008 Bytes, ...) -- CPU_ReadMem(64 bytes @ 0x0001D000) -- Updating C cache (64 bytes @ 0x0001D000) -- Read from C cache (8 bytes @ 0x0001D000) - Data: 00 BF 00 20 03 90 14 48  returns 0x00 (0002ms, 0484ms total)
T2E20 020:933 JLINK_Step() -- Read from C cache (2 bytes @ 0x0001CFD6) -- Simulated  returns 0x00 (0000ms, 0484ms total)
T2E20 020:933 JLINK_ReadReg(R15 (PC))  returns 0x0001CFD8 (0000ms, 0484ms total)
T2E20 020:933 JLINK_ReadReg(XPSR)  returns 0x01000000 (0000ms, 0484ms total)
T2E20 020:934 JLINK_Step() -- Read from C cache (2 bytes @ 0x0001CFD8) -- Read from C cache (1 bytes @ 0x20004E1C) -- Simulated  returns 0x00 (0000ms, 0484ms total)
T2E20 020:934 JLINK_ReadReg(R15 (PC))  returns 0x0001CFDA (0000ms, 0484ms total)
T2E20 020:934 JLINK_ReadReg(XPSR)  returns 0x01000000 (0000ms, 0484ms total)
T2E20 020:934 JLINK_Step() -- Read from C cache (2 bytes @ 0x0001CFDA) -- Simulated  returns 0x00 (0000ms, 0484ms total)
T2E20 020:934 JLINK_ReadReg(R15 (PC))  returns 0x0001CFDC (0000ms, 0484ms total)
T2E20 020:934 JLINK_ReadReg(XPSR)  returns 0x01000000 (0000ms, 0484ms total)
T2E20 020:934 JLINK_Step() -- Read from C cache (2 bytes @ 0x0001CFDC) -- Simulated  returns 0x00 (0000ms, 0484ms total)
T2E20 020:934 JLINK_ReadReg(R15 (PC))  returns 0x0001CFDE (0000ms, 0484ms total)
T2E20 020:934 JLINK_ReadReg(XPSR)  returns 0x01000000 (0000ms, 0484ms total)
T2E20 020:934 JLINK_Step() -- Read from C cache (2 bytes @ 0x0001CFDE) -- Simulated  returns 0x00 (0000ms, 0484ms total)
T2E20 020:934 JLINK_ReadReg(R15 (PC))  returns 0x0001CFE0 (0000ms, 0484ms total)
T2E20 020:934 JLINK_ReadReg(XPSR)  returns 0x01000000 (0000ms, 0484ms total)
T2E20 020:934 JLINK_Step() -- Read from C cache (2 bytes @ 0x0001CFE0) -- CPU_WriteMem(4 bytes @ 0x20004E1C) -- Simulated  returns 0x00 (0001ms, 0485ms total)
T2E20 020:935 JLINK_ReadReg(R15 (PC))  returns 0x0001CFE2 (0000ms, 0485ms total)
T2E20 020:935 JLINK_ReadReg(XPSR)  returns 0x01000000 (0000ms, 0485ms total)
T2E20 020:935 JLINK_ReadReg(R0)  returns 0x00000014 (0000ms, 0485ms total)
T2E20 020:935 JLINK_ReadReg(R1)  returns 0x00000010 (0000ms, 0485ms total)
T2E20 020:935 JLINK_ReadReg(R2)  returns 0x20004DC0 (0000ms, 0485ms total)
T2E20 020:935 JLINK_ReadReg(R3)  returns 0x20002438 (0000ms, 0485ms total)
T2E20 020:935 JLINK_ReadReg(R4)  returns 0x00000000 (0000ms, 0485ms total)
T2E20 020:935 JLINK_ReadReg(R5)  returns 0x00000000 (0000ms, 0485ms total)
T2E20 020:935 JLINK_ReadReg(R6)  returns 0x00000000 (0000ms, 0485ms total)
T2E20 020:935 JLINK_ReadReg(R7)  returns 0xFFFFFFFF (0000ms, 0485ms total)
T2E20 020:935 JLINK_ReadReg(R8)  returns 0xFFFFFFFF (0000ms, 0485ms total)
T2E20 020:935 JLINK_ReadReg(R9)  returns 0xFFFFFFFF (0000ms, 0485ms total)
T2E20 020:935 JLINK_ReadReg(R10)  returns 0xFFFFFFFF (0000ms, 0485ms total)
T2E20 020:935 JLINK_ReadReg(R11)  returns 0xFFFFFFFF (0000ms, 0485ms total)
T2E20 020:935 JLINK_ReadReg(R12)  returns 0xFFFFFFFF (0000ms, 0485ms total)
T2E20 020:935 JLINK_ReadReg(R13 (SP))  returns 0x20004E18 (0000ms, 0485ms total)
T2E20 020:935 JLINK_ReadReg(R14)  returns 0x0001DE65 (0000ms, 0485ms total)
T2E20 020:935 JLINK_ReadReg(R15 (PC))  returns 0x0001CFE2 (0000ms, 0485ms total)
T2E20 020:935 JLINK_ReadReg(XPSR)  returns 0x01000000 (0000ms, 0485ms total)
T2E20 020:935 JLINK_ReadReg(MSP)  returns 0x20004E18 (0000ms, 0485ms total)
T2E20 020:935 JLINK_ReadReg(PSP)  returns 0xFFFFFFFC (0000ms, 0485ms total)
T2E20 020:935 JLINK_ReadReg(CFBP)  returns 0x00000000 (0000ms, 0485ms total)
T1A20 020:935 JLINK_ReadMem (0x20004E34, 0x0004 Bytes, ...) -- CPU_ReadMem(64 bytes @ 0x20004E00) -- Updating C cache (64 bytes @ 0x20004E00) -- Read from C cache (4 bytes @ 0x20004E34) - Data: 3F 07 02 00  returns 0x00 (0002ms, 0487ms total)
T1A20 020:937 JLINK_ReadMem (0x20004E2C, 0x0004 Bytes, ...) -- Read from C cache (4 bytes @ 0x20004E2C) - Data: 00 00 00 00  returns 0x00 (0000ms, 0487ms total)
T1A20 020:937 JLINK_ReadMem (0x20004E30, 0x0004 Bytes, ...) -- Read from C cache (4 bytes @ 0x20004E30) - Data: 00 00 00 00  returns 0x00 (0000ms, 0487ms total)
T1A20 020:937 JLINK_ReadMem (0x20004E44, 0x0004 Bytes, ...) -- Read from C cache (4 bytes @ 0x20004E44) - Data: 61 E9 01 00  returns 0x00 (0000ms, 0487ms total)
T1A20 020:937 JLINK_ReadMem (0x20004E3C, 0x0004 Bytes, ...) -- Read from C cache (4 bytes @ 0x20004E3C) - Data: 00 00 00 00  returns 0x00 (0000ms, 0487ms total)
T1A20 020:937 JLINK_ReadMem (0x20004E40, 0x0004 Bytes, ...) -- Read from C cache (4 bytes @ 0x20004E40) - Data: 00 00 00 00  returns 0x00 (0000ms, 0487ms total)
T1A20 020:937 JLINK_ReadMem (0x20004E4C, 0x0004 Bytes, ...) -- Read from C cache (4 bytes @ 0x20004E4C) - Data: 4D B2 01 00  returns 0x00 (0000ms, 0487ms total)
T1A20 020:937 JLINK_ReadMem (0x20004E1C, 0x0001 Bytes, ...) -- Read from C cache (1 bytes @ 0x20004E1C) - Data: 14  returns 0x00 (0000ms, 0487ms total)
T1A20 020:939 JLINK_ReadMem (0x20004E48, 0x0001 Bytes, ...) -- Read from C cache (1 bytes @ 0x20004E48) - Data: 00  returns 0x00 (0000ms, 0487ms total)
T1A20 020:939 JLINK_ReadMem (0x00000000, 0x0004 Bytes, ...) -- Read from C cache (4 bytes @ 0x00000000) - Data: C0 07 00 00  returns 0x00 (0000ms, 0487ms total)
T1A20 020:939 JLINK_ReadMem (0x40011000, 0x000C Bytes, ...) -- CPU_ReadMem(12 bytes @ 0x40011000) - Data: 00 00 00 00 00 00 00 00 00 00 00 00  returns 0x00 (0001ms, 0488ms total)
T1A20 020:940 JLINK_ReadMem (0x4001100C, 0x0004 Bytes, ...) -- CPU_ReadMem(4 bytes @ 0x4001100C) - Data: 00 00 00 00  returns 0x00 (0001ms, 0489ms total)
T1A20 020:941 JLINK_ReadMem (0x40011100, 0x0004 Bytes, ...) -- CPU_ReadMem(4 bytes @ 0x40011100) - Data: 00 00 00 00  returns 0x00 (0001ms, 0490ms total)
T1A20 020:942 JLINK_ReadMem (0x40011104, 0x0004 Bytes, ...) -- CPU_ReadMem(4 bytes @ 0x40011104) - Data: 00 00 00 00  returns 0x00 (0001ms, 0491ms total)
T1A20 020:943 JLINK_ReadMem (0x40011140, 0x000C Bytes, ...) -- CPU_ReadMem(12 bytes @ 0x40011140) - Data: 00 00 00 00 00 00 00 00 00 00 00 00  returns 0x00 (0001ms, 0492ms total)
T1A20 020:944 JLINK_ReadMem (0x4001114C, 0x0004 Bytes, ...) -- CPU_ReadMem(4 bytes @ 0x4001114C) - Data: 00 00 00 00  returns 0x00 (0002ms, 0494ms total)
T1A20 020:946 JLINK_ReadMem (0x40011304, 0x0004 Bytes, ...) -- CPU_ReadMem(4 bytes @ 0x40011304) - Data: 00 00 00 00  returns 0x00 (0000ms, 0494ms total)
T1A20 020:946 JLINK_ReadMem (0x40011308, 0x0004 Bytes, ...) -- CPU_ReadMem(4 bytes @ 0x40011308) - Data: 00 00 00 00  returns 0x00 (0001ms, 0495ms total)
T1A20 020:947 JLINK_ReadMem (0x40011340, 0x0008 Bytes, ...) -- CPU_ReadMem(8 bytes @ 0x40011340) - Data: 00 00 00 00 00 00 00 00  returns 0x00 (0002ms, 0497ms total)
T1A20 020:949 JLINK_ReadMem (0x40011348, 0x0004 Bytes, ...) -- CPU_ReadMem(4 bytes @ 0x40011348) - Data: 00 00 00 00  returns 0x00 (0000ms, 0497ms total)
T1A20 020:949 JLINK_ReadMem (0x40011504, 0x0004 Bytes, ...) -- CPU_ReadMem(4 bytes @ 0x40011504) - Data: 00 00 00 00  returns 0x00 (0001ms, 0498ms total)
T1A20 020:950 JLINK_ReadMem (0x40011508, 0x0004 Bytes, ...) -- CPU_ReadMem(4 bytes @ 0x40011508) - Data: 00 00 00 00  returns 0x00 (0001ms, 0499ms total)
T1A20 020:951 JLINK_ReadMem (0x40011540, 0x000C Bytes, ...) -- CPU_ReadMem(12 bytes @ 0x40011540) - Data: 00 00 00 00 00 00 00 00 00 00 00 00  returns 0x00 (0001ms, 0500ms total)
T1A20 020:952 JLINK_ReadMem (0x4001154C, 0x0004 Bytes, ...) -- CPU_ReadMem(4 bytes @ 0x4001154C) - Data: 00 00 00 00  returns 0x00 (0001ms, 0501ms total)
T1A20 020:953 JLINK_ReadMem (0x40011FFC, 0x0004 Bytes, ...) -- CPU_ReadMem(4 bytes @ 0x40011FFC) - Data: 01 00 00 00  returns 0x00 (0001ms, 0502ms total)
T1A20 020:960 JLINK_ReadMem (0x0001CFD6, 0x0002 Bytes, ...) -- Read from C cache (2 bytes @ 0x0001CFD6) - Data: 68 46  returns 0x00 (0000ms, 0502ms total)
T1A20 020:960 JLINK_ReadMem (0x0001CFD8, 0x0028 Bytes, ...) -- Read from C cache (40 bytes @ 0x0001CFD8) - Data: 00 79 10 21 88 43 10 30 01 90 1A 48 14 30 00 90 ...  returns 0x00 (0000ms, 0502ms total)
T1A20 020:960 JLINK_ReadMem (0x0001D000, 0x0014 Bytes, ...) -- Read from C cache (20 bytes @ 0x0001D000) - Data: 00 BF 00 20 03 90 14 48 01 78 03 91 01 91 68 46 ...  returns 0x00 (0000ms, 0502ms total)
T2E20 021:451 JLINK_Step() -- Read from C cache (2 bytes @ 0x0001CFE2) -- CPU_ReadMem(64 bytes @ 0x0001D040) -- Updating C cache (64 bytes @ 0x0001D040) -- Read from C cache (4 bytes @ 0x0001D04C) -- Simulated  returns 0x00 (0003ms, 0505ms total)
T2E20 021:454 JLINK_ReadReg(R15 (PC))  returns 0x0001CFE4 (0000ms, 0505ms total)
T2E20 021:454 JLINK_ReadReg(XPSR)  returns 0x01000000 (0000ms, 0505ms total)
T2E20 021:454 JLINK_Step() -- Read from C cache (2 bytes @ 0x0001CFE4) -- Simulated  returns 0x00 (0000ms, 0505ms total)
T2E20 021:454 JLINK_ReadReg(R15 (PC))  returns 0x0001CFE6 (0000ms, 0505ms total)
T2E20 021:454 JLINK_ReadReg(XPSR)  returns 0x01000000 (0000ms, 0505ms total)
T2E20 021:454 JLINK_Step() -- Read from C cache (2 bytes @ 0x0001CFE6) -- CPU_WriteMem(4 bytes @ 0x20004E18) -- Simulated  returns 0x00 (0000ms, 0505ms total)
T2E20 021:454 JLINK_ReadReg(R15 (PC))  returns 0x0001CFE8 (0000ms, 0505ms total)
T2E20 021:454 JLINK_ReadReg(XPSR)  returns 0x01000000 (0000ms, 0505ms total)
T2E20 021:454 JLINK_Step() -- Read from C cache (2 bytes @ 0x0001CFE8) -- Simulated  returns 0x00 (0000ms, 0505ms total)
T2E20 021:454 JLINK_ReadReg(R15 (PC))  returns 0x0001CFEA (0000ms, 0505ms total)
T2E20 021:454 JLINK_ReadReg(XPSR)  returns 0x01000000 (0001ms, 0506ms total)
T2E20 021:455 JLINK_Step() -- Read from C cache (2 bytes @ 0x0001CFEA) -- Simulated  returns 0x00 (0000ms, 0506ms total)
T2E20 021:455 JLINK_ReadReg(R15 (PC))  returns 0x0001CFEC (0000ms, 0506ms total)
T2E20 021:455 JLINK_ReadReg(XPSR)  returns 0x41000000 (0000ms, 0506ms total)
T2E20 021:455 JLINK_Step() -- Read from C cache (2 bytes @ 0x0001CFEC) -- Simulated  returns 0x00 (0000ms, 0506ms total)
T2E20 021:455 JLINK_ReadReg(R15 (PC))  returns 0x0001CFEE (0000ms, 0506ms total)
T2E20 021:455 JLINK_ReadReg(XPSR)  returns 0x01000000 (0000ms, 0506ms total)
T2E20 021:455 JLINK_Step() -- Read from C cache (2 bytes @ 0x0001CFEE) -- CPU_ReadMem(64 bytes @ 0x20004E00) -- Updating C cache (64 bytes @ 0x20004E00) -- Read from C cache (4 bytes @ 0x20004E1C) -- Simulated  returns 0x00 (0002ms, 0508ms total)
T2E20 021:457 JLINK_ReadReg(R15 (PC))  returns 0x0001CFF0 (0000ms, 0508ms total)
T2E20 021:457 JLINK_ReadReg(XPSR)  returns 0x01000000 (0000ms, 0508ms total)
T2E20 021:457 JLINK_Step() -- Read from C cache (2 bytes @ 0x0001CFF0) -- Read from C cache (2 bytes @ 0x0001CFF2) -- Simulated  returns 0x00 (0000ms, 0508ms total)
T2E20 021:457 JLINK_ReadReg(R15 (PC))  returns 0x0001DD4C (0000ms, 0508ms total)
T2E20 021:457 JLINK_ReadReg(XPSR)  returns 0x01000000 (0000ms, 0508ms total)
T2E20 021:457 JLINK_ReadReg(R0)  returns 0x00000015 (0000ms, 0508ms total)
T2E20 021:457 JLINK_ReadReg(R1)  returns 0x00000000 (0000ms, 0508ms total)
T2E20 021:457 JLINK_ReadReg(R2)  returns 0x00000014 (0000ms, 0508ms total)
T2E20 021:457 JLINK_ReadReg(R3)  returns 0x00000014 (0000ms, 0508ms total)
T2E20 021:457 JLINK_ReadReg(R4)  returns 0x00000000 (0000ms, 0508ms total)
T2E20 021:457 JLINK_ReadReg(R5)  returns 0x00000000 (0000ms, 0508ms total)
T2E20 021:457 JLINK_ReadReg(R6)  returns 0x00000000 (0000ms, 0508ms total)
T2E20 021:457 JLINK_ReadReg(R7)  returns 0xFFFFFFFF (0000ms, 0508ms total)
T2E20 021:457 JLINK_ReadReg(R8)  returns 0xFFFFFFFF (0000ms, 0508ms total)
T2E20 021:457 JLINK_ReadReg(R9)  returns 0xFFFFFFFF (0000ms, 0508ms total)
T2E20 021:457 JLINK_ReadReg(R10)  returns 0xFFFFFFFF (0000ms, 0508ms total)
T2E20 021:457 JLINK_ReadReg(R11)  returns 0xFFFFFFFF (0000ms, 0508ms total)
T2E20 021:457 JLINK_ReadReg(R12)  returns 0xFFFFFFFF (0000ms, 0508ms total)
T2E20 021:457 JLINK_ReadReg(R13 (SP))  returns 0x20004E18 (0000ms, 0508ms total)
T2E20 021:457 JLINK_ReadReg(R14)  returns 0x0001CFF5 (0000ms, 0508ms total)
T2E20 021:457 JLINK_ReadReg(R15 (PC))  returns 0x0001DD4C (0000ms, 0508ms total)
T2E20 021:457 JLINK_ReadReg(XPSR)  returns 0x01000000 (0000ms, 0508ms total)
T2E20 021:457 JLINK_ReadReg(MSP)  returns 0x20004E18 (0000ms, 0508ms total)
T2E20 021:457 JLINK_ReadReg(PSP)  returns 0xFFFFFFFC (0000ms, 0508ms total)
T2E20 021:457 JLINK_ReadReg(CFBP)  returns 0x00000000 (0000ms, 0508ms total)
T1A20 021:457 JLINK_ReadMem (0x20004E34, 0x0004 Bytes, ...) -- Read from C cache (4 bytes @ 0x20004E34) - Data: 3F 07 02 00  returns 0x00 (0000ms, 0508ms total)
T1A20 021:457 JLINK_ReadMem (0x20004E2C, 0x0004 Bytes, ...) -- Read from C cache (4 bytes @ 0x20004E2C) - Data: 00 00 00 00  returns 0x00 (0000ms, 0508ms total)
T1A20 021:457 JLINK_ReadMem (0x20004E30, 0x0004 Bytes, ...) -- Read from C cache (4 bytes @ 0x20004E30) - Data: 00 00 00 00  returns 0x00 (0000ms, 0508ms total)
T1A20 021:457 JLINK_ReadMem (0x20004E44, 0x0004 Bytes, ...) -- Read from C cache (4 bytes @ 0x20004E44) - Data: 61 E9 01 00  returns 0x00 (0000ms, 0508ms total)
T1A20 021:457 JLINK_ReadMem (0x20004E3C, 0x0004 Bytes, ...) -- Read from C cache (4 bytes @ 0x20004E3C) - Data: 00 00 00 00  returns 0x00 (0000ms, 0508ms total)
T1A20 021:457 JLINK_ReadMem (0x20004E40, 0x0004 Bytes, ...) -- Read from C cache (4 bytes @ 0x20004E40) - Data: 00 00 00 00  returns 0x00 (0000ms, 0508ms total)
T1A20 021:457 JLINK_ReadMem (0x20004E4C, 0x0004 Bytes, ...) -- Read from C cache (4 bytes @ 0x20004E4C) - Data: 4D B2 01 00  returns 0x00 (0000ms, 0508ms total)
T1A20 021:457 JLINK_ReadMem (0x00000000, 0x0004 Bytes, ...) -- Read from C cache (4 bytes @ 0x00000000) - Data: C0 07 00 00  returns 0x00 (0000ms, 0508ms total)
